T301C 4160:815 SEGGER J-Link V6.32i Log File (0000ms, 31191ms total)
T301C 4160:815 DLL Compiled: Jul 24 2018 15:19:55 (0000ms, 31191ms total)
T301C 4160:815 Logging started @ 2019-08-26 21:37 (0000ms, 31191ms total)
T301C 4160:815 JLINK_SetWarnOutHandler(...) (0000ms, 31191ms total)
T301C 4160:815 JLINK_OpenEx(...)
Firmware: J-Link V9 compiled Oct 25 2018 11:46:07
Hardware: V9.40
S/N: 269402011
OEM: SEGGER-EDU
Feature(s): FlashBP, GDB
TELNET listener socket opened on port 19021WEBSRV 
Starting webserver (0017ms, 31208ms total)
T301C 4160:815 WEBSRV Webserver running on local port 19080 (0018ms, 31209ms total)
T301C 4160:815   returns O.K. (0018ms, 31209ms total)
T301C 4160:833 JLINK_GetEmuCaps()  returns 0xB9FF7BBF (0000ms, 31209ms total)
T301C 4160:833 JLINK_TIF_GetAvailable(...) (0000ms, 31209ms total)
T301C 4160:833 JLINK_SetErrorOutHandler(...) (0000ms, 31209ms total)
T301C 4160:833 JLINK_ExecCommand("ProjectFile = "C:\Users\u15q86\Documents\SNES\FW\keil\project\MDK-ARM\JLinkSettings.ini"", ...).   returns 0x00 (0003ms, 31212ms total)
T301C 4160:836 JLINK_ExecCommand("Device = STM32F446ZETx", ...). Device "STM32F446ZE" selected.  returns 0x00 (0002ms, 31214ms total)
T301C 4160:838 JLINK_ExecCommand("DisableConnectionTimeout", ...).   returns 0x01 (0000ms, 31214ms total)
T301C 4160:838 JLINK_GetHardwareVersion()  returns 0x16F30 (0000ms, 31214ms total)
T301C 4160:838 JLINK_GetDLLVersion()  returns 63209 (0000ms, 31214ms total)
T301C 4160:838 JLINK_GetDLLVersion()  returns 63209 (0000ms, 31214ms total)
T301C 4160:838 JLINK_GetCompileDateTime() (0000ms, 31214ms total)
T301C 4160:838 JLINK_GetFirmwareString(...) (0000ms, 31214ms total)
T301C 4160:838 JLINK_GetHardwareVersion()  returns 0x16F30 (0000ms, 31214ms total)
T301C 4160:838 JLINK_TIF_Select(JLINKARM_TIF_SWD)  returns 0x00 (0001ms, 31215ms total)
T301C 4160:839 JLINK_SetSpeed(5000) (0000ms, 31215ms total)
T301C 4160:839 JLINK_GetId() >0x10B TIF>Found SW-DP with ID 0x2BA01477 >0x0D TIF> >0x28 TIF> >0x0D TIF> >0x28 TIF> >0x0D TIF> >0x28 TIF> >0x0D TIF> >0x28 TIF> >0x0D TIF> >0x21 TIF> >0x0D TIF> >0x28 TIF> >0x0D TIF> >0x28 TIF> >0x0D TIF> >0x28 TIF> >0x0D TIF> >0x21 TIF> >0x0D TIF> >0x21 TIF> >0x0D TIF> >0x28 TIF> >0x0D TIF> >0x21 TIF> >0x0D TIF> >0x21 TIF> >0x0D TIF> >0x28 TIF> >0x0D TIF> >0x21 TIF> >0x0D TIF> >0x21 TIF> >0x0D TIF> >0x28 TIF> >0x0D TIF> >0x21 TIF> >0x0D TIF> >0x21 TIF> >0x0D TIF>
 >0x28 TIF> >0x0D TIF> >0x21 TIF> >0x0D TIF> >0x21 TIF> >0x0D TIF> >0x28 TIF> >0x0D TIF> >0x21 TIF> >0x0D TIF> >0x21 TIF> >0x10B TIF>Found SW-DP with ID 0x2BA01477 >0x0D TIF> >0x28 TIF> >0x0D TIF> >0x28 TIF> >0x0D TIF> >0x28 TIF> >0x0D TIF> >0x28 TIF> >0x0D TIF> >0x21 TIF> >0x0D TIF> >0x28 TIF>Scanning AP map to find all available APs >0x0D TIF> >0x28 TIF> >0x0D TIF> >0x21 TIF> >0x0D TIF> >0x21 TIF> >0x0D TIF> >0x28 TIF> >0x0D TIF> >0x21 TIF> >0x0D TIF> >0x21 TIF>
AP[1]: Stopped AP scan as end of AP map has been reachedAP[0]: AHB-AP (IDR: 0x24770011)Iterating through AP map to find AHB-AP to use >0x42 TIF> >0x28 TIF> >0x0D TIF> >0x28 TIF> >0x0D TIF> >0x21 TIF> >0x0D TIF> >0x21 TIF> >0x42 TIF> >0x28 TIF> >0x0D TIF> >0x28 TIF> >0x0D TIF> >0x28 TIF> >0x0D TIF> >0x21 TIF> >0x0D TIF> >0x21 TIF>AP[0]: Core foundAP[0]: AHB-AP ROM base: 0xE00FF000 >0x0D TIF> >0x28 TIF> >0x0D TIF> >0x28 TIF> >0x0D TIF> >0x28 TIF> >0x0D TIF> >0x21 TIF> >0x0D TIF> >0x21 TIF>
CPUID register: 0x410FC241. Implementer code: 0x41 (ARM)Found Cortex-M4 r0p1, Little endian. -- Max. mem block: 0x00010F28 -- CPU_ReadMem(4 bytes @ 0xE000EDF0) -- CPU_WriteMem(4 bytes @ 0xE000EDF0) -- CPU_ReadMem(4 bytes @ 0xE0002000)FPUnit: 6 code (BP) slots and 2 literal slots -- CPU_ReadMem(4 bytes @ 0xE000EDFC) -- CPU_WriteMem(4 bytes @ 0xE000EDFC) -- CPU_ReadMem(4 bytes @ 0xE0001000) -- CPU_WriteMem(4 bytes @ 0xE0001000) -- CPU_ReadMem(4 bytes @ 0xE000ED88) -- CPU_WriteMem(4 bytes @ 0xE000ED88)
 -- CPU_ReadMem(4 bytes @ 0xE000ED88) -- CPU_WriteMem(4 bytes @ 0xE000ED88)CoreSight components:ROMTbl[0] @ E00FF000 -- CPU_ReadMem(16 bytes @ 0xE00FF000) -- CPU_ReadMem(16 bytes @ 0xE000EFF0) -- CPU_ReadMem(16 bytes @ 0xE000EFE0)ROMTbl[0][0]: E000E000, CID: B105E00D, PID: 000BB00C SCS-M7 -- CPU_ReadMem(16 bytes @ 0xE0001FF0) -- CPU_ReadMem(16 bytes @ 0xE0001FE0)ROMTbl[0][1]: E0001000, CID: B105E00D, PID: 003BB002 DWT -- CPU_ReadMem(16 bytes @ 0xE0002FF0) -- CPU_ReadMem(16 bytes @ 0xE0002FE0)
ROMTbl[0][2]: E0002000, CID: B105E00D, PID: 002BB003 FPB -- CPU_ReadMem(16 bytes @ 0xE0000FF0) -- CPU_ReadMem(16 bytes @ 0xE0000FE0)ROMTbl[0][3]: E0000000, CID: B105E00D, PID: 003BB001 ITM -- CPU_ReadMem(16 bytes @ 0xE00FF010) -- CPU_ReadMem(16 bytes @ 0xE0040FF0) -- CPU_ReadMem(16 bytes @ 0xE0040FE0)ROMTbl[0][4]: E0040000, CID: B105900D, PID: 000BB9A1 TPIU -- CPU_ReadMem(16 bytes @ 0xE0041FF0) -- CPU_ReadMem(16 bytes @ 0xE0041FE0)ROMTbl[0][5]: E0041000, CID: B105900D, PID: 000BB925 ETM >0x0D TIF>
 >0x21 TIF>  returns 0x2BA01477 (0140ms, 31355ms total)
T301C 4160:979 JLINK_GetDLLVersion()  returns 63209 (0000ms, 31355ms total)
T301C 4160:979 JLINK_CORE_GetFound()  returns 0xE0000FF (0000ms, 31355ms total)
T301C 4160:979 JLINK_GetDebugInfo(0x100 = JLINKARM_ROM_TABLE_ADDR_INDEX) -- Value=0xE00FF000  returns 0x00 (0000ms, 31355ms total)
T301C 4160:979 JLINK_GetDebugInfo(0x100 = JLINKARM_ROM_TABLE_ADDR_INDEX) -- Value=0xE00FF000  returns 0x00 (0000ms, 31355ms total)
T301C 4160:979 JLINK_GetDebugInfo(0x101 = JLINKARM_DEBUG_INFO_ETM_ADDR_INDEX) -- Value=0xE0041000  returns 0x00 (0000ms, 31355ms total)
T301C 4160:980 JLINK_ReadMemEx(0xE0041FD0, 0x0020 Bytes, ..., Flags = 0x02000004) -- CPU_ReadMem(32 bytes @ 0xE0041FD0) - Data: 04 00 00 00 00 00 00 00 00 00 00 00 00 00 00 00 ...  returns 0x20 (0000ms, 31356ms total)
T301C 4160:980 JLINK_GetDebugInfo(0x102 = JLINKARM_DEBUG_INFO_MTB_ADDR_INDEX) -- Value=0x00000000  returns 0x00 (0000ms, 31356ms total)
T301C 4160:980 JLINK_GetDebugInfo(0x103 = JLINKARM_DEBUG_INFO_TPIU_ADDR_INDEX) -- Value=0xE0040000  returns 0x00 (0000ms, 31356ms total)
T301C 4160:981 JLINK_GetDebugInfo(0x104 = JLINKARM_DEBUG_INFO_ITM_ADDR_INDEX) -- Value=0xE0000000  returns 0x00 (0000ms, 31357ms total)
T301C 4160:981 JLINK_GetDebugInfo(0x105 = JLINKARM_DEBUG_INFO_DWT_ADDR_INDEX) -- Value=0xE0001000  returns 0x00 (0000ms, 31357ms total)
T301C 4160:981 JLINK_GetDebugInfo(0x106 = JLINKARM_DEBUG_INFO_FPB_ADDR_INDEX) -- Value=0xE0002000  returns 0x00 (0000ms, 31357ms total)
T301C 4160:981 JLINK_GetDebugInfo(0x107 = JLINKARM_DEBUG_INFO_NVIC_ADDR_INDEX) -- Value=0xE000E000  returns 0x00 (0000ms, 31357ms total)
T301C 4160:981 JLINK_GetDebugInfo(0x10C = JLINKARM_DEBUG_INFO_DBG_ADDR_INDEX) -- Value=0xE000EDF0  returns 0x00 (0000ms, 31357ms total)
T301C 4160:981 JLINK_GetDebugInfo(0x01 = Unknown) -- Value=0x00000001  returns 0x00 (0000ms, 31357ms total)
T301C 4160:981 JLINK_ReadMemU32(0xE000ED00, 0x0001 Items, ...) -- CPU_ReadMem(4 bytes @ 0xE000ED00) - Data: 41 C2 0F 41  returns 0x01 (0001ms, 31358ms total)
T301C 4160:982 JLINK_GetDebugInfo(0x10F = JLINKARM_DEBUG_INFO_HAS_CORTEX_M_SECURITY_EXT_INDEX) -- Value=0x00000000  returns 0x00 (0000ms, 31358ms total)
T301C 4160:982 JLINK_SetResetType(JLINKARM_CM3_RESET_TYPE_NORMAL)  returns JLINKARM_CM3_RESET_TYPE_NORMAL (0000ms, 31358ms total)
T301C 4160:982 JLINK_Reset() -- CPU is running -- CPU_WriteMem(4 bytes @ 0xE000EDF0) -- CPU is running -- CPU_WriteMem(4 bytes @ 0xE000EDFC)Reset: Halt core after reset via DEMCR.VC_CORERESET. >0x35 TIF>Reset: Reset device via AIRCR.SYSRESETREQ. -- CPU is running -- CPU_WriteMem(4 bytes @ 0xE000ED0C) >0x0D TIF> >0x28 TIF> -- CPU_ReadMem(4 bytes @ 0xE000EDF0) -- CPU_ReadMem(4 bytes @ 0xE000EDF0) -- CPU is running -- CPU_WriteMem(4 bytes @ 0xE000EDF0) -- CPU is running -- CPU_WriteMem(4 bytes @ 0xE000EDFC)
 -- CPU_ReadMem(4 bytes @ 0xE000EDF0) -- CPU_WriteMem(4 bytes @ 0xE0002000) -- CPU_ReadMem(4 bytes @ 0xE000EDFC) -- CPU_ReadMem(4 bytes @ 0xE0001000) (0067ms, 31425ms total)
T301C 4161:049 JLINK_ReadReg(R15 (PC))  returns 0x080001D8 (0000ms, 31425ms total)
T301C 4161:049 JLINK_ReadReg(XPSR)  returns 0x01000000 (0001ms, 31426ms total)
T301C 4161:050 JLINK_Halt()  returns 0x00 (0000ms, 31426ms total)
T301C 4161:050 JLINK_ReadMemU32(0xE000EDF0, 0x0001 Items, ...) -- CPU_ReadMem(4 bytes @ 0xE000EDF0) - Data: 03 00 03 00  returns 0x01 (0000ms, 31426ms total)
T301C 4161:050 JLINK_WriteU32(0xE000EDF0, 0xA05F0003) -- CPU_WriteMem(4 bytes @ 0xE000EDF0)  returns 0x00 (0001ms, 31427ms total)
T301C 4161:051 JLINK_WriteU32(0xE000EDFC, 0x01000000) -- CPU_WriteMem(4 bytes @ 0xE000EDFC)  returns 0x00 (0001ms, 31428ms total)
T301C 4161:052 JLINK_GetHWStatus(...)  returns 0x00 (0000ms, 31428ms total)
T301C 4161:052 JLINK_GetNumBPUnits(Type = 0xFFFFFF00)  returns 0x06 (0000ms, 31428ms total)
T301C 4161:052 JLINK_GetNumBPUnits(Type = 0xF0)  returns 0x2000 (0000ms, 31428ms total)
T301C 4161:052 JLINK_GetNumWPUnits()  returns 0x04 (0000ms, 31428ms total)
T301C 4161:052 JLINK_GetSpeed()  returns 0xFA0 (0000ms, 31428ms total)
T301C 4161:052 JLINK_ReadMemU32(0xE000E004, 0x0001 Items, ...) -- CPU_ReadMem(4 bytes @ 0xE000E004) - Data: 03 00 00 00  returns 0x01 (0001ms, 31429ms total)
T301C 4161:053 JLINK_ReadMemU32(0xE000E004, 0x0001 Items, ...) -- CPU_ReadMem(4 bytes @ 0xE000E004) - Data: 03 00 00 00  returns 0x01 (0001ms, 31430ms total)
T301C 4161:054 JLINK_WriteMemEx(0xE0001000, 0x001C Bytes, ..., Flags = 0x02000004) - Data: 01 00 00 00 00 00 00 00 00 00 00 00 00 00 00 00 ... -- CPU_WriteMem(28 bytes @ 0xE0001000)  returns 0x1C (0002ms, 31432ms total)
T301C 4161:056 JLINK_ReadReg(R15 (PC))  returns 0x080001D8 (0000ms, 31432ms total)
T301C 4161:056 JLINK_ReadReg(XPSR)  returns 0x01000000 (0000ms, 31432ms total)
T301C 4161:072 JLINK_ReadMemEx(0xE0001004, 0x0004 Bytes, ..., Flags = 0x02000000) - Data: 00 00 00 00  returns 0x04 (0001ms, 31433ms total)
T301C 4161:186 JLINK_SetResetType(JLINKARM_CM3_RESET_TYPE_NORMAL)  returns JLINKARM_CM3_RESET_TYPE_NORMAL (0000ms, 31433ms total)
T301C 4161:186 JLINK_Reset() -- CPU_WriteMem(4 bytes @ 0xE000EDF0) -- CPU_WriteMem(4 bytes @ 0xE000EDFC)Reset: Halt core after reset via DEMCR.VC_CORERESET. >0x35 TIF>Reset: Reset device via AIRCR.SYSRESETREQ. -- CPU_WriteMem(4 bytes @ 0xE000ED0C) >0x0D TIF> >0x28 TIF> -- CPU_ReadMem(4 bytes @ 0xE000EDF0) -- CPU_ReadMem(4 bytes @ 0xE000EDF0) -- CPU_WriteMem(4 bytes @ 0xE000EDF0) -- CPU_WriteMem(4 bytes @ 0xE000EDFC) -- CPU_ReadMem(4 bytes @ 0xE000EDF0) -- CPU_WriteMem(4 bytes @ 0xE0002000)
 -- CPU_ReadMem(4 bytes @ 0xE000EDFC) -- CPU_ReadMem(4 bytes @ 0xE0001000) (0066ms, 31499ms total)
T301C 4161:253 JLINK_ReadReg(R15 (PC))  returns 0x080001D8 (0000ms, 31499ms total)
T301C 4161:253 JLINK_ReadReg(XPSR)  returns 0x01000000 (0000ms, 31499ms total)
T301C 4161:255 JLINK_ReadMemEx(0x080001C4, 0x003C Bytes, ..., Flags = 0x02000000) -- CPU_ReadMem(64 bytes @ 0x080001C0) -- Updating C cache (64 bytes @ 0x080001C0) -- Read from C cache (60 bytes @ 0x080001C4) - Data: DF F8 0C D0 00 F0 68 F8 00 48 00 47 35 12 00 08 ...  returns 0x3C (0001ms, 31500ms total)
T301C 4161:415 JLINK_ReadMemEx(0x40012000, 0x004C Bytes, ..., Flags = 0x02000004) -- CPU_ReadMem(76 bytes @ 0x40012000) - Data: 00 00 00 00 00 00 00 00 00 00 00 00 00 00 00 00 ...  returns 0x4C (0001ms, 31501ms total)
T301C 4161:416 JLINK_ReadMemEx(0x4001204C, 0x0004 Bytes, ..., Flags = 0x02000004) -- CPU_ReadMem(4 bytes @ 0x4001204C) - Data: 00 00 00 00  returns 0x04 (0000ms, 31501ms total)
T301C 4161:474 JLINK_ReadMemEx(0x40020000, 0x0014 Bytes, ..., Flags = 0x02000004) -- CPU_ReadMem(20 bytes @ 0x40020000) - Data: 00 00 00 A8 00 00 00 A8 00 00 00 A8 00 00 00 A8 ...  returns 0x14 (0001ms, 31502ms total)
T301C 4161:475 JLINK_ReadMemEx(0x40020014, 0x0004 Bytes, ..., Flags = 0x02000004) -- CPU_ReadMem(4 bytes @ 0x40020014) - Data: 00 00 00 A8  returns 0x04 (0000ms, 31502ms total)
T301C 4161:475 JLINK_ReadMemEx(0x4002001C, 0x0008 Bytes, ..., Flags = 0x02000004) -- CPU_ReadMem(8 bytes @ 0x4002001C) - Data: 00 00 00 A8 00 00 00 A8  returns 0x08 (0000ms, 31502ms total)
T301C 4161:475 JLINK_ReadMemEx(0x40020024, 0x0004 Bytes, ..., Flags = 0x02000004) -- CPU_ReadMem(4 bytes @ 0x40020024) - Data: 00 00 00 A8  returns 0x04 (0001ms, 31503ms total)
T301C 4161:532 JLINK_ReadMemEx(0x40020400, 0x0014 Bytes, ..., Flags = 0x02000004) -- CPU_ReadMem(20 bytes @ 0x40020400) - Data: 80 02 00 00 80 02 00 00 80 02 00 00 80 02 00 00 ...  returns 0x14 (0001ms, 31504ms total)
T301C 4161:533 JLINK_ReadMemEx(0x40020414, 0x0004 Bytes, ..., Flags = 0x02000004) -- CPU_ReadMem(4 bytes @ 0x40020414) - Data: 80 02 00 00  returns 0x04 (0000ms, 31504ms total)
T301C 4161:533 JLINK_ReadMemEx(0x4002041C, 0x0008 Bytes, ..., Flags = 0x02000004) -- CPU_ReadMem(8 bytes @ 0x4002041C) - Data: 80 02 00 00 80 02 00 00  returns 0x08 (0000ms, 31504ms total)
T301C 4161:533 JLINK_ReadMemEx(0x40020424, 0x0004 Bytes, ..., Flags = 0x02000004) -- CPU_ReadMem(4 bytes @ 0x40020424) - Data: 80 02 00 00  returns 0x04 (0001ms, 31505ms total)
T301C 4161:589 JLINK_ReadMemEx(0x40020C00, 0x0014 Bytes, ..., Flags = 0x02000004) -- CPU_ReadMem(20 bytes @ 0x40020C00) - Data: 00 00 00 00 00 00 00 00 00 00 00 00 00 00 00 00 ...  returns 0x14 (0000ms, 31505ms total)
T301C 4161:589 JLINK_ReadMemEx(0x40020C14, 0x0004 Bytes, ..., Flags = 0x02000004) -- CPU_ReadMem(4 bytes @ 0x40020C14) - Data: 00 00 00 00  returns 0x04 (0000ms, 31505ms total)
T301C 4161:589 JLINK_ReadMemEx(0x40020C1C, 0x0008 Bytes, ..., Flags = 0x02000004) -- CPU_ReadMem(8 bytes @ 0x40020C1C) - Data: 00 00 00 00 00 00 00 00  returns 0x08 (0001ms, 31506ms total)
T301C 4161:590 JLINK_ReadMemEx(0x40020C24, 0x0004 Bytes, ..., Flags = 0x02000004) -- CPU_ReadMem(4 bytes @ 0x40020C24) - Data: 00 00 00 00  returns 0x04 (0000ms, 31506ms total)
T301C 4161:646 JLINK_ReadMemEx(0x40021400, 0x0014 Bytes, ..., Flags = 0x02000004) -- CPU_ReadMem(20 bytes @ 0x40021400) - Data: 00 00 00 00 00 00 00 00 00 00 00 00 00 00 00 00 ...  returns 0x14 (0001ms, 31507ms total)
T301C 4161:647 JLINK_ReadMemEx(0x40021414, 0x0004 Bytes, ..., Flags = 0x02000004) -- CPU_ReadMem(4 bytes @ 0x40021414) - Data: 00 00 00 00  returns 0x04 (0000ms, 31507ms total)
T301C 4161:647 JLINK_ReadMemEx(0x4002141C, 0x0008 Bytes, ..., Flags = 0x02000004) -- CPU_ReadMem(8 bytes @ 0x4002141C) - Data: 00 00 00 00 00 00 00 00  returns 0x08 (0000ms, 31507ms total)
T301C 4161:647 JLINK_ReadMemEx(0x40021424, 0x0004 Bytes, ..., Flags = 0x02000004) -- CPU_ReadMem(4 bytes @ 0x40021424) - Data: 00 00 00 00  returns 0x04 (0001ms, 31508ms total)
T301C 4163:464 JLINK_ReadReg(R0)  returns 0x00000000 (0001ms, 31509ms total)
T301C 4163:465 JLINK_ReadReg(R1)  returns 0x00000000 (0000ms, 31509ms total)
T301C 4163:465 JLINK_ReadReg(R2)  returns 0x00000000 (0000ms, 31509ms total)
T301C 4163:465 JLINK_ReadReg(R3)  returns 0x00000000 (0000ms, 31509ms total)
T301C 4163:465 JLINK_ReadReg(R4)  returns 0x00000000 (0000ms, 31509ms total)
T301C 4163:465 JLINK_ReadReg(R5)  returns 0x00000000 (0000ms, 31509ms total)
T301C 4163:465 JLINK_ReadReg(R6)  returns 0x00000000 (0000ms, 31509ms total)
T301C 4163:465 JLINK_ReadReg(R7)  returns 0x00000000 (0000ms, 31509ms total)
T301C 4163:465 JLINK_ReadReg(R8)  returns 0x00000000 (0000ms, 31509ms total)
T301C 4163:465 JLINK_ReadReg(R9)  returns 0x00000000 (0000ms, 31509ms total)
T301C 4163:465 JLINK_ReadReg(R10)  returns 0x00000000 (0000ms, 31509ms total)
T301C 4163:465 JLINK_ReadReg(R11)  returns 0x00000000 (0000ms, 31509ms total)
T301C 4163:465 JLINK_ReadReg(R12)  returns 0x00000000 (0000ms, 31509ms total)
T301C 4163:465 JLINK_ReadReg(R13 (SP))  returns 0x20005460 (0000ms, 31509ms total)
T301C 4163:465 JLINK_ReadReg(R14)  returns 0xFFFFFFFF (0000ms, 31509ms total)
T301C 4163:465 JLINK_ReadReg(R15 (PC))  returns 0x080001D8 (0000ms, 31509ms total)
T301C 4163:465 JLINK_ReadReg(XPSR)  returns 0x01000000 (0000ms, 31509ms total)
T301C 4163:465 JLINK_ReadReg(MSP)  returns 0x20005460 (0000ms, 31509ms total)
T301C 4163:465 JLINK_ReadReg(PSP)  returns 0x00000000 (0000ms, 31509ms total)
T301C 4163:465 JLINK_ReadReg(CFBP)  returns 0x00000000 (0000ms, 31509ms total)
T301C 4163:465 JLINK_ReadReg(FPSCR)  returns 0x00000000 (0003ms, 31512ms total)
T301C 4163:468 JLINK_ReadReg(FPS0)  returns 0x00000000 (0000ms, 31512ms total)
T301C 4163:468 JLINK_ReadReg(FPS1)  returns 0x00000000 (0000ms, 31512ms total)
T301C 4163:468 JLINK_ReadReg(FPS2)  returns 0x00000000 (0000ms, 31512ms total)
T301C 4163:468 JLINK_ReadReg(FPS3)  returns 0x00000000 (0000ms, 31512ms total)
T301C 4163:468 JLINK_ReadReg(FPS4)  returns 0x00000000 (0000ms, 31512ms total)
T301C 4163:468 JLINK_ReadReg(FPS5)  returns 0x00000000 (0000ms, 31512ms total)
T301C 4163:468 JLINK_ReadReg(FPS6)  returns 0x00000000 (0000ms, 31512ms total)
T301C 4163:468 JLINK_ReadReg(FPS7)  returns 0x00000000 (0000ms, 31512ms total)
T301C 4163:468 JLINK_ReadReg(FPS8)  returns 0x00000000 (0000ms, 31512ms total)
T301C 4163:468 JLINK_ReadReg(FPS9)  returns 0x00000000 (0000ms, 31512ms total)
T301C 4163:468 JLINK_ReadReg(FPS10)  returns 0x00000000 (0000ms, 31512ms total)
T301C 4163:468 JLINK_ReadReg(FPS11)  returns 0x00000000 (0000ms, 31512ms total)
T301C 4163:468 JLINK_ReadReg(FPS12)  returns 0x00000000 (0000ms, 31512ms total)
T301C 4163:468 JLINK_ReadReg(FPS13)  returns 0x00000000 (0000ms, 31512ms total)
T301C 4163:468 JLINK_ReadReg(FPS14)  returns 0x00000000 (0000ms, 31512ms total)
T301C 4163:468 JLINK_ReadReg(FPS15)  returns 0x00000000 (0001ms, 31513ms total)
T301C 4163:469 JLINK_ReadReg(FPS16)  returns 0x00000000 (0000ms, 31513ms total)
T301C 4163:469 JLINK_ReadReg(FPS17)  returns 0x00000000 (0000ms, 31513ms total)
T301C 4163:469 JLINK_ReadReg(FPS18)  returns 0x00000000 (0000ms, 31513ms total)
T301C 4163:469 JLINK_ReadReg(FPS19)  returns 0x00000000 (0000ms, 31513ms total)
T301C 4163:469 JLINK_ReadReg(FPS20)  returns 0x00000000 (0000ms, 31513ms total)
T301C 4163:469 JLINK_ReadReg(FPS21)  returns 0x00000000 (0000ms, 31513ms total)
T301C 4163:469 JLINK_ReadReg(FPS22)  returns 0x00000000 (0000ms, 31513ms total)
T301C 4163:469 JLINK_ReadReg(FPS23)  returns 0x00000000 (0000ms, 31513ms total)
T301C 4163:469 JLINK_ReadReg(FPS24)  returns 0x00000000 (0000ms, 31513ms total)
T301C 4163:469 JLINK_ReadReg(FPS25)  returns 0x00000000 (0000ms, 31513ms total)
T301C 4163:469 JLINK_ReadReg(FPS26)  returns 0x00000000 (0000ms, 31513ms total)
T301C 4163:469 JLINK_ReadReg(FPS27)  returns 0x00000000 (0000ms, 31513ms total)
T301C 4163:469 JLINK_ReadReg(FPS28)  returns 0x00000000 (0000ms, 31513ms total)
T301C 4163:469 JLINK_ReadReg(FPS29)  returns 0x00000000 (0000ms, 31513ms total)
T301C 4163:469 JLINK_ReadReg(FPS30)  returns 0x00000000 (0001ms, 31514ms total)
T301C 4163:470 JLINK_ReadReg(FPS31)  returns 0x00000000 (0000ms, 31514ms total)
T301C 4163:470 JLINK_ReadMemEx(0x00000000, 0x0001 Bytes, ..., Flags = 0x02000000) -- CPU_ReadMem(4 bytes @ 0x00000004) -- CPU_ReadMem(64 bytes @ 0x08000000) -- Updating C cache (64 bytes @ 0x08000000) -- Read from C cache (1 bytes @ 0x08000000) - Data: 60  returns 0x01 (0000ms, 31514ms total)
T301C 4163:494 JLINK_ReadMemEx(0x20000002, 0x0020 Bytes, ..., Flags = 0x02000000) -- CPU_ReadMem(64 bytes @ 0x20000000) -- Updating C cache (64 bytes @ 0x20000000) -- Read from C cache (32 bytes @ 0x20000002) - Data: 0A E0 0D 78 2D 06 68 40 08 24 40 00 00 D3 58 40 ...  returns 0x20 (0001ms, 31515ms total)
T301C 4163:501 JLINK_ReadMemEx(0x20004407, 0x0001 Bytes, ..., Flags = 0x02000000) -- CPU_ReadMem(64 bytes @ 0x20004400) -- Updating C cache (64 bytes @ 0x20004400) -- Read from C cache (1 bytes @ 0x20004407) - Data: 02  returns 0x01 (0001ms, 31516ms total)
T301C 4163:510 JLINK_ReadMemEx(0x20004408, 0x0001 Bytes, ..., Flags = 0x02000000) -- Read from C cache (1 bytes @ 0x20004408) - Data: 00  returns 0x01 (0000ms, 31516ms total)
T301C 4163:518 JLINK_ReadMemEx(0x20004406, 0x0001 Bytes, ..., Flags = 0x02000000) -- Read from C cache (1 bytes @ 0x20004406) - Data: 00  returns 0x01 (0000ms, 31516ms total)
T6478 4163:580 JLINK_ReadMemEx(0x080001D8, 0x0002 Bytes, ..., Flags = 0x02000000) -- Read from C cache (2 bytes @ 0x080001D8) - Data: 06 48  returns 0x02 (0001ms, 31517ms total)
T6478 4163:581 JLINK_SetBPEx(Addr = 0x08001234, Type = 0xFFFFFFF2)  returns 0x00000001 (0000ms, 31517ms total)
T6478 4163:581 JLINK_Go() -- CPU_WriteMem(4 bytes @ 0xE0002000) -- CPU_ReadMem(4 bytes @ 0xE0001000) -- CPU_WriteMem(4 bytes @ 0xE0002008) -- CPU_WriteMem(4 bytes @ 0xE000200C) -- CPU_WriteMem(4 bytes @ 0xE0002010) -- CPU_WriteMem(4 bytes @ 0xE0002014) -- CPU_WriteMem(4 bytes @ 0xE0002018) -- CPU_WriteMem(4 bytes @ 0xE000201C) -- CPU_WriteMem(4 bytes @ 0xE0001004) (0003ms, 31520ms total)
T6478 4163:684 JLINK_IsHalted()  returns TRUE (0002ms, 31522ms total)
T6478 4163:686 JLINK_Halt()  returns 0x00 (0000ms, 31520ms total)
T6478 4163:686 JLINK_IsHalted()  returns TRUE (0000ms, 31520ms total)
T6478 4163:686 JLINK_IsHalted()  returns TRUE (0000ms, 31520ms total)
T6478 4163:686 JLINK_IsHalted()  returns TRUE (0000ms, 31520ms total)
T6478 4163:686 JLINK_ReadReg(R15 (PC))  returns 0x08001234 (0000ms, 31520ms total)
T6478 4163:686 JLINK_ReadReg(XPSR)  returns 0x61000000 (0000ms, 31520ms total)
T6478 4163:686 JLINK_ClrBPEx(BPHandle = 0x00000001)  returns 0x00 (0000ms, 31520ms total)
T6478 4163:686 JLINK_ReadMemU32(0xE000ED30, 0x0001 Items, ...) -- CPU_ReadMem(4 bytes @ 0xE000ED30) - Data: 02 00 00 00  returns 0x01 (0000ms, 31520ms total)
T6478 4163:686 JLINK_ReadMemU32(0xE0001028, 0x0001 Items, ...) -- CPU_ReadMem(4 bytes @ 0xE0001028) - Data: 00 00 00 00  returns 0x01 (0000ms, 31520ms total)
T6478 4163:687 JLINK_ReadMemU32(0xE0001038, 0x0001 Items, ...) -- CPU_ReadMem(4 bytes @ 0xE0001038) - Data: 00 02 00 00  returns 0x01 (0000ms, 31521ms total)
T6478 4163:687 JLINK_ReadMemU32(0xE0001048, 0x0001 Items, ...) -- CPU_ReadMem(4 bytes @ 0xE0001048) - Data: 00 00 00 00  returns 0x01 (0000ms, 31521ms total)
T6478 4163:687 JLINK_ReadMemU32(0xE0001058, 0x0001 Items, ...) -- CPU_ReadMem(4 bytes @ 0xE0001058) - Data: 00 00 00 00  returns 0x01 (0001ms, 31522ms total)
T6478 4163:688 JLINK_ReadReg(R0)  returns 0x08001235 (0000ms, 31522ms total)
T6478 4163:688 JLINK_ReadReg(R1)  returns 0x20005460 (0000ms, 31522ms total)
T6478 4163:688 JLINK_ReadReg(R2)  returns 0x00000000 (0000ms, 31522ms total)
T6478 4163:688 JLINK_ReadReg(R3)  returns 0x08001227 (0000ms, 31522ms total)
T6478 4163:688 JLINK_ReadReg(R4)  returns 0x080014A4 (0000ms, 31522ms total)
T6478 4163:688 JLINK_ReadReg(R5)  returns 0x080014A4 (0000ms, 31522ms total)
T6478 4163:688 JLINK_ReadReg(R6)  returns 0x00000000 (0000ms, 31522ms total)
T6478 4163:688 JLINK_ReadReg(R7)  returns 0x00000000 (0000ms, 31522ms total)
T6478 4163:688 JLINK_ReadReg(R8)  returns 0x00000000 (0000ms, 31522ms total)
T6478 4163:688 JLINK_ReadReg(R9)  returns 0x00000000 (0000ms, 31522ms total)
T6478 4163:688 JLINK_ReadReg(R10)  returns 0x00000000 (0000ms, 31522ms total)
T6478 4163:688 JLINK_ReadReg(R11)  returns 0x00000000 (0000ms, 31522ms total)
T6478 4163:688 JLINK_ReadReg(R12)  returns 0x00000000 (0000ms, 31522ms total)
T6478 4163:688 JLINK_ReadReg(R13 (SP))  returns 0x20005460 (0000ms, 31522ms total)
T6478 4163:688 JLINK_ReadReg(R14)  returns 0x080002B9 (0000ms, 31522ms total)
T6478 4163:688 JLINK_ReadReg(R15 (PC))  returns 0x08001234 (0000ms, 31522ms total)
T6478 4163:688 JLINK_ReadReg(XPSR)  returns 0x61000000 (0000ms, 31522ms total)
T6478 4163:688 JLINK_ReadReg(MSP)  returns 0x20005460 (0000ms, 31522ms total)
T6478 4163:688 JLINK_ReadReg(PSP)  returns 0x00000000 (0000ms, 31522ms total)
T6478 4163:688 JLINK_ReadReg(CFBP)  returns 0x00000000 (0000ms, 31522ms total)
T6478 4163:688 JLINK_ReadReg(FPSCR)  returns 0x00000000 (0003ms, 31525ms total)
T6478 4163:691 JLINK_ReadReg(FPS0)  returns 0x00000000 (0000ms, 31525ms total)
T6478 4163:691 JLINK_ReadReg(FPS1)  returns 0x00000000 (0000ms, 31525ms total)
T6478 4163:691 JLINK_ReadReg(FPS2)  returns 0x00000000 (0000ms, 31525ms total)
T6478 4163:691 JLINK_ReadReg(FPS3)  returns 0x00000000 (0000ms, 31525ms total)
T6478 4163:691 JLINK_ReadReg(FPS4)  returns 0x00000000 (0000ms, 31525ms total)
T6478 4163:691 JLINK_ReadReg(FPS5)  returns 0x00000000 (0000ms, 31525ms total)
T6478 4163:691 JLINK_ReadReg(FPS6)  returns 0x00000000 (0000ms, 31525ms total)
T6478 4163:691 JLINK_ReadReg(FPS7)  returns 0x00000000 (0000ms, 31525ms total)
T6478 4163:691 JLINK_ReadReg(FPS8)  returns 0x00000000 (0000ms, 31525ms total)
T6478 4163:691 JLINK_ReadReg(FPS9)  returns 0x00000000 (0000ms, 31525ms total)
T6478 4163:691 JLINK_ReadReg(FPS10)  returns 0x00000000 (0000ms, 31525ms total)
T6478 4163:692 JLINK_ReadReg(FPS11)  returns 0x00000000 (0000ms, 31525ms total)
T6478 4163:692 JLINK_ReadReg(FPS12)  returns 0x00000000 (0000ms, 31525ms total)
T6478 4163:692 JLINK_ReadReg(FPS13)  returns 0x00000000 (0000ms, 31525ms total)
T6478 4163:692 JLINK_ReadReg(FPS14)  returns 0x00000000 (0000ms, 31525ms total)
T6478 4163:692 JLINK_ReadReg(FPS15)  returns 0x00000000 (0000ms, 31525ms total)
T6478 4163:692 JLINK_ReadReg(FPS16)  returns 0x00000000 (0000ms, 31525ms total)
T6478 4163:692 JLINK_ReadReg(FPS17)  returns 0x00000000 (0000ms, 31525ms total)
T6478 4163:692 JLINK_ReadReg(FPS18)  returns 0x00000000 (0000ms, 31525ms total)
T6478 4163:692 JLINK_ReadReg(FPS19)  returns 0x00000000 (0000ms, 31525ms total)
T6478 4163:692 JLINK_ReadReg(FPS20)  returns 0x00000000 (0000ms, 31525ms total)
T6478 4163:692 JLINK_ReadReg(FPS21)  returns 0x00000000 (0000ms, 31525ms total)
T6478 4163:692 JLINK_ReadReg(FPS22)  returns 0x00000000 (0000ms, 31525ms total)
T6478 4163:692 JLINK_ReadReg(FPS23)  returns 0x00000000 (0000ms, 31525ms total)
T6478 4163:692 JLINK_ReadReg(FPS24)  returns 0x00000000 (0000ms, 31525ms total)
T6478 4163:692 JLINK_ReadReg(FPS25)  returns 0x00000000 (0000ms, 31525ms total)
T6478 4163:692 JLINK_ReadReg(FPS26)  returns 0x00000000 (0000ms, 31525ms total)
T6478 4163:692 JLINK_ReadReg(FPS27)  returns 0x00000000 (0000ms, 31525ms total)
T6478 4163:692 JLINK_ReadReg(FPS28)  returns 0x00000000 (0000ms, 31525ms total)
T6478 4163:692 JLINK_ReadReg(FPS29)  returns 0x00000000 (0000ms, 31525ms total)
T6478 4163:692 JLINK_ReadReg(FPS30)  returns 0x00000000 (0000ms, 31525ms total)
T6478 4163:692 JLINK_ReadReg(FPS31)  returns 0x00000000 (0000ms, 31525ms total)
T301C 4163:694 JLINK_ReadMemU32(0xE0001004, 0x0001 Items, ...) -- CPU_ReadMem(4 bytes @ 0xE0001004) - Data: B1 C4 01 00  returns 0x01 (0000ms, 31525ms total)
T301C 4163:694 JLINK_ReadMemEx(0x00000000, 0x0001 Bytes, ..., Flags = 0x02000000) -- CPU_ReadMem(4 bytes @ 0x00000004) -- CPU_ReadMem(64 bytes @ 0x08000000) -- Updating C cache (64 bytes @ 0x08000000) -- Read from C cache (1 bytes @ 0x08000000) - Data: 60  returns 0x01 (0001ms, 31526ms total)
T301C 4163:696 JLINK_ReadMemEx(0x20000002, 0x0020 Bytes, ..., Flags = 0x02000000) -- CPU_ReadMem(64 bytes @ 0x20000000) -- Updating C cache (64 bytes @ 0x20000000) -- Read from C cache (32 bytes @ 0x20000002) - Data: 40 00 00 00 00 00 00 00 00 00 00 00 00 00 00 00 ...  returns 0x20 (0001ms, 31527ms total)
T301C 4163:697 JLINK_ReadMemEx(0x20004407, 0x0001 Bytes, ..., Flags = 0x02000000) -- CPU_ReadMem(64 bytes @ 0x20004400) -- Updating C cache (64 bytes @ 0x20004400) -- Read from C cache (1 bytes @ 0x20004407) - Data: 01  returns 0x01 (0001ms, 31528ms total)
T301C 4163:698 JLINK_ReadMemEx(0x20004408, 0x0001 Bytes, ..., Flags = 0x02000000) -- Read from C cache (1 bytes @ 0x20004408) - Data: 00  returns 0x01 (0000ms, 31528ms total)
T301C 4163:698 JLINK_ReadMemEx(0x20004406, 0x0001 Bytes, ..., Flags = 0x02000000) -- Read from C cache (1 bytes @ 0x20004406) - Data: 00  returns 0x01 (0000ms, 31528ms total)
T301C 4163:699 JLINK_ReadMemEx(0x20005454, 0x0001 Bytes, ..., Flags = 0x02000000) -- CPU_ReadMem(64 bytes @ 0x20005440) -- Updating C cache (64 bytes @ 0x20005440) -- Read from C cache (1 bytes @ 0x20005454) - Data: 00  returns 0x01 (0001ms, 31530ms total)
T301C 4163:708 JLINK_ReadMemEx(0x20005458, 0x0001 Bytes, ..., Flags = 0x02000000) -- Read from C cache (1 bytes @ 0x20005458) - Data: 00  returns 0x01 (0000ms, 31530ms total)
T301C 4163:717 JLINK_ReadMemEx(0x40012000, 0x004C Bytes, ..., Flags = 0x02000004) -- CPU_ReadMem(76 bytes @ 0x40012000) - Data: 00 00 00 00 00 00 00 00 00 00 00 00 00 00 00 00 ...  returns 0x4C (0000ms, 31530ms total)
T301C 4163:717 JLINK_ReadMemEx(0x4001204C, 0x0004 Bytes, ..., Flags = 0x02000004) -- CPU_ReadMem(4 bytes @ 0x4001204C) - Data: 00 00 00 00  returns 0x04 (0001ms, 31531ms total)
T301C 4163:719 JLINK_ReadMemEx(0x40020400, 0x0014 Bytes, ..., Flags = 0x02000004) -- CPU_ReadMem(20 bytes @ 0x40020400) - Data: 80 02 00 00 80 02 00 00 80 02 00 00 80 02 00 00 ...  returns 0x14 (0000ms, 31531ms total)
T301C 4163:719 JLINK_ReadMemEx(0x40020414, 0x0004 Bytes, ..., Flags = 0x02000004) -- CPU_ReadMem(4 bytes @ 0x40020414) - Data: 80 02 00 00  returns 0x04 (0001ms, 31532ms total)
T301C 4163:720 JLINK_ReadMemEx(0x4002041C, 0x0008 Bytes, ..., Flags = 0x02000004) -- CPU_ReadMem(8 bytes @ 0x4002041C) - Data: 80 02 00 00 80 02 00 00  returns 0x08 (0000ms, 31532ms total)
T301C 4163:720 JLINK_ReadMemEx(0x40020424, 0x0004 Bytes, ..., Flags = 0x02000004) -- CPU_ReadMem(4 bytes @ 0x40020424) - Data: 80 02 00 00  returns 0x04 (0002ms, 31534ms total)
T301C 4163:723 JLINK_ReadMemEx(0x40021400, 0x0014 Bytes, ..., Flags = 0x02000004) -- CPU_ReadMem(20 bytes @ 0x40021400) - Data: 00 00 00 00 00 00 00 00 00 00 00 00 00 00 00 00 ...  returns 0x14 (0000ms, 31534ms total)
T301C 4163:723 JLINK_ReadMemEx(0x40021414, 0x0004 Bytes, ..., Flags = 0x02000004) -- CPU_ReadMem(4 bytes @ 0x40021414) - Data: 00 00 00 00  returns 0x04 (0001ms, 31535ms total)
T301C 4163:724 JLINK_ReadMemEx(0x4002141C, 0x0008 Bytes, ..., Flags = 0x02000004) -- CPU_ReadMem(8 bytes @ 0x4002141C) - Data: 00 00 00 00 00 00 00 00  returns 0x08 (0000ms, 31535ms total)
T301C 4163:724 JLINK_ReadMemEx(0x40021424, 0x0004 Bytes, ..., Flags = 0x02000004) -- CPU_ReadMem(4 bytes @ 0x40021424) - Data: 00 00 00 00  returns 0x04 (0001ms, 31536ms total)
T301C 4163:726 JLINK_ReadMemEx(0x40020C00, 0x0014 Bytes, ..., Flags = 0x02000004) -- CPU_ReadMem(20 bytes @ 0x40020C00) - Data: 00 00 00 00 00 00 00 00 00 00 00 00 00 00 00 00 ...  returns 0x14 (0000ms, 31536ms total)
T301C 4163:726 JLINK_ReadMemEx(0x40020C14, 0x0004 Bytes, ..., Flags = 0x02000004) -- CPU_ReadMem(4 bytes @ 0x40020C14) - Data: 00 00 00 00  returns 0x04 (0000ms, 31536ms total)
T301C 4163:726 JLINK_ReadMemEx(0x40020C1C, 0x0008 Bytes, ..., Flags = 0x02000004) -- CPU_ReadMem(8 bytes @ 0x40020C1C) - Data: 00 00 00 00 00 00 00 00  returns 0x08 (0001ms, 31537ms total)
T301C 4163:727 JLINK_ReadMemEx(0x40020C24, 0x0004 Bytes, ..., Flags = 0x02000004) -- CPU_ReadMem(4 bytes @ 0x40020C24) - Data: 00 00 00 00  returns 0x04 (0000ms, 31537ms total)
T301C 4163:728 JLINK_ReadMemEx(0x40020000, 0x0014 Bytes, ..., Flags = 0x02000004) -- CPU_ReadMem(20 bytes @ 0x40020000) - Data: 00 00 00 A8 00 00 00 A8 00 00 00 A8 00 00 00 A8 ...  returns 0x14 (0001ms, 31538ms total)
T301C 4163:729 JLINK_ReadMemEx(0x40020014, 0x0004 Bytes, ..., Flags = 0x02000004) -- CPU_ReadMem(4 bytes @ 0x40020014) - Data: 00 00 00 A8  returns 0x04 (0000ms, 31538ms total)
T301C 4163:729 JLINK_ReadMemEx(0x4002001C, 0x0008 Bytes, ..., Flags = 0x02000004) -- CPU_ReadMem(8 bytes @ 0x4002001C) - Data: 00 00 00 A8 00 00 00 A8  returns 0x08 (0001ms, 31539ms total)
T301C 4163:730 JLINK_ReadMemEx(0x40020024, 0x0004 Bytes, ..., Flags = 0x02000004) -- CPU_ReadMem(4 bytes @ 0x40020024) - Data: 00 00 00 A8  returns 0x04 (0000ms, 31539ms total)
T301C 4163:736 JLINK_ReadMemEx(0x08001134, 0x003C Bytes, ..., Flags = 0x02000000) -- CPU_ReadMem(128 bytes @ 0x08001100) -- Updating C cache (128 bytes @ 0x08001100) -- Read from C cache (60 bytes @ 0x08001134) - Data: 01 60 00 68 02 24 00 F4 40 40 12 90 01 20 03 90 ...  returns 0x3C (0001ms, 31540ms total)
T301C 4163:737 JLINK_ReadMemEx(0x08001170, 0x003C Bytes, ..., Flags = 0x02000000) -- CPU_ReadMem(64 bytes @ 0x08001180) -- Updating C cache (64 bytes @ 0x08001180) -- Read from C cache (60 bytes @ 0x08001170) - Data: CD E9 0D 04 4F F4 A0 50 CD E9 0F 50 4F F4 80 50 ...  returns 0x3C (0001ms, 31541ms total)
T301C 4163:738 JLINK_ReadMemEx(0x080011AC, 0x003C Bytes, ..., Flags = 0x02000000) -- CPU_ReadMem(64 bytes @ 0x080011C0) -- Updating C cache (64 bytes @ 0x080011C0) -- Read from C cache (60 bytes @ 0x080011AC) - Data: 13 FC 13 B0 30 BD 00 00 40 38 02 40 00 70 00 40 ...  returns 0x3C (0000ms, 31541ms total)
T301C 4163:738 JLINK_ReadMemEx(0x080011E8, 0x003C Bytes, ..., Flags = 0x02000000) -- CPU_ReadMem(64 bytes @ 0x08001200) -- Updating C cache (64 bytes @ 0x08001200) -- Read from C cache (60 bytes @ 0x080011E8) - Data: 02 68 22 F4 80 22 02 60 06 48 01 60 06 49 58 06 ...  returns 0x3C (0001ms, 31542ms total)
T301C 4163:739 JLINK_ReadMemEx(0x08001224, 0x003C Bytes, ..., Flags = 0x02000000) -- CPU_ReadMem(64 bytes @ 0x08001240) -- Updating C cache (64 bytes @ 0x08001240) -- Read from C cache (60 bytes @ 0x08001224) - Data: 70 47 00 20 01 E0 01 C1 12 1F 00 2A FB D1 70 47 ...  returns 0x3C (0001ms, 31543ms total)
T6478 4166:320 JLINK_ReadMemEx(0x08001234, 0x0002 Bytes, ..., Flags = 0x02000000) -- Read from C cache (2 bytes @ 0x08001234) - Data: 88 B0  returns 0x02 (0000ms, 31543ms total)
T6478 4166:320 JLINK_Go() -- CPU_ReadMem(4 bytes @ 0xE0001000) -- CPU_WriteMem(4 bytes @ 0xE0002008) (0002ms, 31545ms total)
T6478 4166:423 JLINK_IsHalted()  returns FALSE (0000ms, 31545ms total)
T6478 4166:524 JLINK_IsHalted()  returns FALSE (0000ms, 31545ms total)
T6478 4166:625 JLINK_IsHalted()  returns FALSE (0000ms, 31545ms total)
T6478 4166:726 JLINK_IsHalted()  returns FALSE (0000ms, 31545ms total)
T6478 4166:827 JLINK_ReadMemU32(0xE0001004, 0x0001 Items, ...) -- CPU_ReadMem(4 bytes @ 0xE0001004) - Data: 13 23 88 05  returns 0x01 (0000ms, 31545ms total)
T301C 4166:827 JLINK_ReadMemEx(0x00000000, 0x0001 Bytes, ..., Flags = 0x02000000) -- CPU_ReadMem(4 bytes @ 0x00000004) -- CPU_ReadMem(1 bytes @ 0x08000000) - Data: 60  returns 0x01 (0001ms, 31546ms total)
T301C 4166:828 JLINK_ReadMemEx(0x20000002, 0x0020 Bytes, ..., Flags = 0x02000000) -- CPU_ReadMem(32 bytes @ 0x20000002) - Data: 40 00 00 00 00 00 00 00 00 00 00 00 00 00 00 00 ...  returns 0x20 (0001ms, 31547ms total)
T301C 4166:829 JLINK_ReadMemEx(0x20004407, 0x0001 Bytes, ..., Flags = 0x02000000) -- CPU_ReadMem(1 bytes @ 0x20004407) - Data: 01  returns 0x01 (0000ms, 31547ms total)
T301C 4166:830 JLINK_ReadMemEx(0x20004408, 0x0001 Bytes, ..., Flags = 0x02000000) -- CPU_ReadMem(1 bytes @ 0x20004408) - Data: 00  returns 0x01 (0000ms, 31547ms total)
T301C 4166:830 JLINK_ReadMemEx(0x20004406, 0x0001 Bytes, ..., Flags = 0x02000000) -- CPU_ReadMem(1 bytes @ 0x20004406) - Data: 00  returns 0x01 (0001ms, 31548ms total)
T301C 4166:831 JLINK_ReadMemEx(0x20005454, 0x0001 Bytes, ..., Flags = 0x02000000) -- CPU_ReadMem(1 bytes @ 0x20005454) - Data: 01  returns 0x01 (0000ms, 31548ms total)
T301C 4166:831 JLINK_ReadMemEx(0x20005458, 0x0001 Bytes, ..., Flags = 0x02000000) -- CPU_ReadMem(1 bytes @ 0x20005458) - Data: 0F  returns 0x01 (0001ms, 31549ms total)
T301C 4166:832 JLINK_ReadMemEx(0x40012000, 0x004C Bytes, ..., Flags = 0x02000004) -- CPU_ReadMem(76 bytes @ 0x40012000) - Data: 00 00 00 00 00 00 00 00 00 04 00 00 00 00 00 00 ...  returns 0x4C (0001ms, 31550ms total)
T301C 4166:833 JLINK_ReadMemEx(0x4001204C, 0x0004 Bytes, ..., Flags = 0x02000004) -- CPU_ReadMem(4 bytes @ 0x4001204C) - Data: 00 00 00 00  returns 0x04 (0000ms, 31550ms total)
T301C 4166:851 JLINK_ReadMemEx(0x40020400, 0x0014 Bytes, ..., Flags = 0x02000004) -- CPU_ReadMem(20 bytes @ 0x40020400) - Data: 8F 02 40 55 00 00 00 00 C0 00 00 00 00 01 40 55 ...  returns 0x14 (0001ms, 31551ms total)
T301C 4166:852 JLINK_ReadMemEx(0x40020414, 0x0004 Bytes, ..., Flags = 0x02000004) -- CPU_ReadMem(4 bytes @ 0x40020414) - Data: 00 F8 00 00  returns 0x04 (0000ms, 31551ms total)
T301C 4166:852 JLINK_ReadMemEx(0x4002041C, 0x0008 Bytes, ..., Flags = 0x02000004) -- CPU_ReadMem(8 bytes @ 0x4002041C) - Data: 00 00 00 00 00 00 00 00  returns 0x08 (0002ms, 31553ms total)
T301C 4166:854 JLINK_ReadMemEx(0x40020424, 0x0004 Bytes, ..., Flags = 0x02000004) -- CPU_ReadMem(4 bytes @ 0x40020424) - Data: 00 00 00 00  returns 0x04 (0000ms, 31553ms total)
T301C 4166:856 JLINK_ReadMemEx(0x40021400, 0x0014 Bytes, ..., Flags = 0x02000004) -- CPU_ReadMem(20 bytes @ 0x40021400) - Data: 00 00 00 00 00 00 00 00 00 00 00 00 00 00 00 00 ...  returns 0x14 (0000ms, 31553ms total)
T301C 4166:856 JLINK_ReadMemEx(0x40021414, 0x0004 Bytes, ..., Flags = 0x02000004) -- CPU_ReadMem(4 bytes @ 0x40021414) - Data: 00 00 00 00  returns 0x04 (0001ms, 31554ms total)
T301C 4166:857 JLINK_ReadMemEx(0x4002141C, 0x0008 Bytes, ..., Flags = 0x02000004) -- CPU_ReadMem(8 bytes @ 0x4002141C) - Data: 00 00 00 00 00 00 00 00  returns 0x08 (0000ms, 31554ms total)
T301C 4166:857 JLINK_ReadMemEx(0x40021424, 0x0004 Bytes, ..., Flags = 0x02000004) -- CPU_ReadMem(4 bytes @ 0x40021424) - Data: 00 00 00 00  returns 0x04 (0001ms, 31555ms total)
T301C 4166:858 JLINK_ReadMemEx(0x40020C00, 0x0014 Bytes, ..., Flags = 0x02000004) -- CPU_ReadMem(20 bytes @ 0x40020C00) - Data: 55 55 00 00 00 00 00 00 FF FF 00 00 00 00 00 00 ...  returns 0x14 (0000ms, 31555ms total)
T301C 4166:858 JLINK_ReadMemEx(0x40020C14, 0x0004 Bytes, ..., Flags = 0x02000004) -- CPU_ReadMem(4 bytes @ 0x40020C14) - Data: FF 00 00 00  returns 0x04 (0001ms, 31556ms total)
T301C 4166:859 JLINK_ReadMemEx(0x40020C1C, 0x0008 Bytes, ..., Flags = 0x02000004) -- CPU_ReadMem(8 bytes @ 0x40020C1C) - Data: 00 00 00 00 00 00 00 00  returns 0x08 (0000ms, 31556ms total)
T301C 4166:859 JLINK_ReadMemEx(0x40020C24, 0x0004 Bytes, ..., Flags = 0x02000004) -- CPU_ReadMem(4 bytes @ 0x40020C24) - Data: 00 00 00 00  returns 0x04 (0001ms, 31557ms total)
T301C 4166:861 JLINK_ReadMemEx(0x40020000, 0x0014 Bytes, ..., Flags = 0x02000004) -- CPU_ReadMem(20 bytes @ 0x40020000) - Data: 54 00 00 A8 00 00 00 00 FC 00 00 0C 00 00 00 64 ...  returns 0x14 (0000ms, 31557ms total)
T301C 4166:861 JLINK_ReadMemEx(0x40020014, 0x0004 Bytes, ..., Flags = 0x02000004) -- CPU_ReadMem(4 bytes @ 0x40020014) - Data: 08 00 00 00  returns 0x04 (0001ms, 31558ms total)
T301C 4166:862 JLINK_ReadMemEx(0x4002001C, 0x0008 Bytes, ..., Flags = 0x02000004) -- CPU_ReadMem(8 bytes @ 0x4002001C) - Data: 00 00 00 00 00 00 00 00  returns 0x08 (0000ms, 31558ms total)
T301C 4166:862 JLINK_ReadMemEx(0x40020024, 0x0004 Bytes, ..., Flags = 0x02000004) -- CPU_ReadMem(4 bytes @ 0x40020024) - Data: 00 00 00 00  returns 0x04 (0001ms, 31559ms total)
T6478 4166:864 JLINK_IsHalted()  returns FALSE (0001ms, 31560ms total)
T6478 4166:965 JLINK_IsHalted()  returns FALSE (0000ms, 31559ms total)
T6478 4167:067 JLINK_IsHalted()  returns FALSE (0000ms, 31559ms total)
T6478 4167:168 JLINK_IsHalted()  returns FALSE (0000ms, 31559ms total)
T6478 4167:269 JLINK_IsHalted()  returns FALSE (0000ms, 31559ms total)
T6478 4167:370 JLINK_ReadMemU32(0xE0001004, 0x0001 Items, ...) - Data: 13 23 88 05  returns 0x01 (0000ms, 31559ms total)
T301C 4167:370 JLINK_ReadMemEx(0x00000000, 0x0001 Bytes, ..., Flags = 0x02000000) -- CPU_ReadMem(1 bytes @ 0x08000000) - Data: 60  returns 0x01 (0001ms, 31560ms total)
T301C 4167:372 JLINK_ReadMemEx(0x20000002, 0x0020 Bytes, ..., Flags = 0x02000000) -- CPU_ReadMem(32 bytes @ 0x20000002) - Data: 40 00 00 00 00 00 00 00 00 00 00 00 00 00 00 00 ...  returns 0x20 (0002ms, 31562ms total)
T301C 4167:374 JLINK_ReadMemEx(0x20004407, 0x0001 Bytes, ..., Flags = 0x02000000) -- CPU_ReadMem(1 bytes @ 0x20004407) - Data: 01  returns 0x01 (0000ms, 31562ms total)
T301C 4167:374 JLINK_ReadMemEx(0x20004408, 0x0001 Bytes, ..., Flags = 0x02000000) -- CPU_ReadMem(1 bytes @ 0x20004408) - Data: 00  returns 0x01 (0001ms, 31563ms total)
T301C 4167:376 JLINK_ReadMemEx(0x20004406, 0x0001 Bytes, ..., Flags = 0x02000000) -- CPU_ReadMem(1 bytes @ 0x20004406) - Data: 00  returns 0x01 (0000ms, 31564ms total)
T301C 4167:376 JLINK_ReadMemEx(0x20005454, 0x0001 Bytes, ..., Flags = 0x02000000) -- CPU_ReadMem(1 bytes @ 0x20005454) - Data: 01  returns 0x01 (0001ms, 31565ms total)
T301C 4167:378 JLINK_ReadMemEx(0x20005458, 0x0001 Bytes, ..., Flags = 0x02000000) -- CPU_ReadMem(1 bytes @ 0x20005458) - Data: 0F  returns 0x01 (0001ms, 31566ms total)
T301C 4167:379 JLINK_ReadMemEx(0x40012000, 0x004C Bytes, ..., Flags = 0x02000004) -- CPU_ReadMem(76 bytes @ 0x40012000) - Data: 00 00 00 00 00 00 00 00 00 04 00 00 00 00 00 00 ...  returns 0x4C (0001ms, 31567ms total)
T301C 4167:380 JLINK_ReadMemEx(0x4001204C, 0x0004 Bytes, ..., Flags = 0x02000004) -- CPU_ReadMem(4 bytes @ 0x4001204C) - Data: 00 00 00 00  returns 0x04 (0001ms, 31568ms total)
T301C 4167:382 JLINK_ReadMemEx(0x40020400, 0x0014 Bytes, ..., Flags = 0x02000004) -- CPU_ReadMem(20 bytes @ 0x40020400) - Data: 8F 02 40 55 00 00 00 00 C0 00 00 00 00 01 40 55 ...  returns 0x14 (0001ms, 31569ms total)
T301C 4167:383 JLINK_ReadMemEx(0x40020414, 0x0004 Bytes, ..., Flags = 0x02000004) -- CPU_ReadMem(4 bytes @ 0x40020414) - Data: 00 F8 00 00  returns 0x04 (0001ms, 31570ms total)
T301C 4167:384 JLINK_ReadMemEx(0x4002041C, 0x0008 Bytes, ..., Flags = 0x02000004) -- CPU_ReadMem(8 bytes @ 0x4002041C) - Data: 00 00 00 00 00 00 00 00  returns 0x08 (0000ms, 31570ms total)
T301C 4167:384 JLINK_ReadMemEx(0x40020424, 0x0004 Bytes, ..., Flags = 0x02000004) -- CPU_ReadMem(4 bytes @ 0x40020424) - Data: 00 00 00 00  returns 0x04 (0001ms, 31571ms total)
T301C 4167:386 JLINK_ReadMemEx(0x40021400, 0x0014 Bytes, ..., Flags = 0x02000004) -- CPU_ReadMem(20 bytes @ 0x40021400) - Data: 00 00 00 00 00 00 00 00 00 00 00 00 00 00 00 00 ...  returns 0x14 (0001ms, 31572ms total)
T301C 4167:387 JLINK_ReadMemEx(0x40021414, 0x0004 Bytes, ..., Flags = 0x02000004) -- CPU_ReadMem(4 bytes @ 0x40021414) - Data: 00 00 00 00  returns 0x04 (0000ms, 31572ms total)
T301C 4167:387 JLINK_ReadMemEx(0x4002141C, 0x0008 Bytes, ..., Flags = 0x02000004) -- CPU_ReadMem(8 bytes @ 0x4002141C) - Data: 00 00 00 00 00 00 00 00  returns 0x08 (0001ms, 31573ms total)
T301C 4167:388 JLINK_ReadMemEx(0x40021424, 0x0004 Bytes, ..., Flags = 0x02000004) -- CPU_ReadMem(4 bytes @ 0x40021424) - Data: 00 00 00 00  returns 0x04 (0001ms, 31574ms total)
T301C 4167:390 JLINK_ReadMemEx(0x40020C00, 0x0014 Bytes, ..., Flags = 0x02000004) -- CPU_ReadMem(20 bytes @ 0x40020C00) - Data: 55 55 00 00 00 00 00 00 FF FF 00 00 00 00 00 00 ...  returns 0x14 (0001ms, 31575ms total)
T301C 4167:391 JLINK_ReadMemEx(0x40020C14, 0x0004 Bytes, ..., Flags = 0x02000004) -- CPU_ReadMem(4 bytes @ 0x40020C14) - Data: FF 00 00 00  returns 0x04 (0000ms, 31575ms total)
T301C 4167:391 JLINK_ReadMemEx(0x40020C1C, 0x0008 Bytes, ..., Flags = 0x02000004) -- CPU_ReadMem(8 bytes @ 0x40020C1C) - Data: 00 00 00 00 00 00 00 00  returns 0x08 (0000ms, 31575ms total)
T301C 4167:391 JLINK_ReadMemEx(0x40020C24, 0x0004 Bytes, ..., Flags = 0x02000004) -- CPU_ReadMem(4 bytes @ 0x40020C24) - Data: 00 00 00 00  returns 0x04 (0001ms, 31576ms total)
T301C 4167:393 JLINK_ReadMemEx(0x40020000, 0x0014 Bytes, ..., Flags = 0x02000004) -- CPU_ReadMem(20 bytes @ 0x40020000) - Data: 54 00 00 A8 00 00 00 00 FC 00 00 0C 00 00 00 64 ...  returns 0x14 (0001ms, 31577ms total)
T301C 4167:394 JLINK_ReadMemEx(0x40020014, 0x0004 Bytes, ..., Flags = 0x02000004) -- CPU_ReadMem(4 bytes @ 0x40020014) - Data: 08 00 00 00  returns 0x04 (0001ms, 31578ms total)
T301C 4167:395 JLINK_ReadMemEx(0x4002001C, 0x0008 Bytes, ..., Flags = 0x02000004) -- CPU_ReadMem(8 bytes @ 0x4002001C) - Data: 00 00 00 00 00 00 00 00  returns 0x08 (0000ms, 31578ms total)
T301C 4167:395 JLINK_ReadMemEx(0x40020024, 0x0004 Bytes, ..., Flags = 0x02000004) -- CPU_ReadMem(4 bytes @ 0x40020024) - Data: 00 00 00 00  returns 0x04 (0001ms, 31579ms total)
T6478 4167:397 JLINK_IsHalted()  returns FALSE (0001ms, 31580ms total)
T6478 4167:499 JLINK_IsHalted()  returns FALSE (0000ms, 31579ms total)
T6478 4167:601 JLINK_IsHalted()  returns FALSE (0000ms, 31579ms total)
T6478 4167:702 JLINK_IsHalted()  returns FALSE (0000ms, 31579ms total)
T6478 4167:804 JLINK_IsHalted()  returns FALSE (0000ms, 31579ms total)
T6478 4167:906 JLINK_ReadMemU32(0xE0001004, 0x0001 Items, ...) - Data: 13 23 88 05  returns 0x01 (0000ms, 31579ms total)
T301C 4167:906 JLINK_ReadMemEx(0x00000000, 0x0001 Bytes, ..., Flags = 0x02000000) -- CPU_ReadMem(1 bytes @ 0x08000000) - Data: 60  returns 0x01 (0000ms, 31579ms total)
T301C 4167:907 JLINK_ReadMemEx(0x20000002, 0x0020 Bytes, ..., Flags = 0x02000000) -- CPU_ReadMem(32 bytes @ 0x20000002) - Data: 40 00 00 00 00 00 00 00 00 00 00 00 00 00 00 00 ...  returns 0x20 (0000ms, 31579ms total)
T301C 4167:907 JLINK_ReadMemEx(0x20004407, 0x0001 Bytes, ..., Flags = 0x02000000) -- CPU_ReadMem(1 bytes @ 0x20004407) - Data: 01  returns 0x01 (0001ms, 31580ms total)
T301C 4167:908 JLINK_ReadMemEx(0x20004408, 0x0001 Bytes, ..., Flags = 0x02000000) -- CPU_ReadMem(1 bytes @ 0x20004408) - Data: 00  returns 0x01 (0000ms, 31580ms total)
T301C 4167:908 JLINK_ReadMemEx(0x20004406, 0x0001 Bytes, ..., Flags = 0x02000000) -- CPU_ReadMem(1 bytes @ 0x20004406) - Data: 00  returns 0x01 (0000ms, 31580ms total)
T301C 4167:908 JLINK_ReadMemEx(0x20005454, 0x0001 Bytes, ..., Flags = 0x02000000) -- CPU_ReadMem(1 bytes @ 0x20005454) - Data: 01  returns 0x01 (0001ms, 31581ms total)
T301C 4167:909 JLINK_ReadMemEx(0x20005458, 0x0001 Bytes, ..., Flags = 0x02000000) -- CPU_ReadMem(1 bytes @ 0x20005458) - Data: 0F  returns 0x01 (0000ms, 31581ms total)
T301C 4167:909 JLINK_ReadMemEx(0x40012000, 0x004C Bytes, ..., Flags = 0x02000004) -- CPU_ReadMem(76 bytes @ 0x40012000) - Data: 00 00 00 00 00 00 00 00 00 04 00 00 00 00 00 00 ...  returns 0x4C (0001ms, 31582ms total)
T301C 4167:910 JLINK_ReadMemEx(0x4001204C, 0x0004 Bytes, ..., Flags = 0x02000004) -- CPU_ReadMem(4 bytes @ 0x4001204C) - Data: 00 00 00 00  returns 0x04 (0000ms, 31582ms total)
T301C 4167:910 JLINK_ReadMemEx(0x40020400, 0x0014 Bytes, ..., Flags = 0x02000004) -- CPU_ReadMem(20 bytes @ 0x40020400) - Data: 8F 02 40 55 00 00 00 00 C0 00 00 00 00 01 40 55 ...  returns 0x14 (0001ms, 31583ms total)
T301C 4167:911 JLINK_ReadMemEx(0x40020414, 0x0004 Bytes, ..., Flags = 0x02000004) -- CPU_ReadMem(4 bytes @ 0x40020414) - Data: 00 F8 00 00  returns 0x04 (0000ms, 31583ms total)
T301C 4167:911 JLINK_ReadMemEx(0x4002041C, 0x0008 Bytes, ..., Flags = 0x02000004) -- CPU_ReadMem(8 bytes @ 0x4002041C) - Data: 00 00 00 00 00 00 00 00  returns 0x08 (0001ms, 31584ms total)
T301C 4167:912 JLINK_ReadMemEx(0x40020424, 0x0004 Bytes, ..., Flags = 0x02000004) -- CPU_ReadMem(4 bytes @ 0x40020424) - Data: 00 00 00 00  returns 0x04 (0000ms, 31584ms total)
T301C 4167:912 JLINK_ReadMemEx(0x40021400, 0x0014 Bytes, ..., Flags = 0x02000004) -- CPU_ReadMem(20 bytes @ 0x40021400) - Data: 00 00 00 00 00 00 00 00 00 00 00 00 00 00 00 00 ...  returns 0x14 (0001ms, 31585ms total)
T301C 4167:913 JLINK_ReadMemEx(0x40021414, 0x0004 Bytes, ..., Flags = 0x02000004) -- CPU_ReadMem(4 bytes @ 0x40021414) - Data: 00 00 00 00  returns 0x04 (0000ms, 31585ms total)
T301C 4167:913 JLINK_ReadMemEx(0x4002141C, 0x0008 Bytes, ..., Flags = 0x02000004) -- CPU_ReadMem(8 bytes @ 0x4002141C) - Data: 00 00 00 00 00 00 00 00  returns 0x08 (0000ms, 31585ms total)
T301C 4167:913 JLINK_ReadMemEx(0x40021424, 0x0004 Bytes, ..., Flags = 0x02000004) -- CPU_ReadMem(4 bytes @ 0x40021424) - Data: 00 00 00 00  returns 0x04 (0001ms, 31586ms total)
T301C 4167:915 JLINK_ReadMemEx(0x40020C00, 0x0014 Bytes, ..., Flags = 0x02000004) -- CPU_ReadMem(20 bytes @ 0x40020C00) - Data: 55 55 00 00 00 00 00 00 FF FF 00 00 00 00 00 00 ...  returns 0x14 (0000ms, 31586ms total)
T301C 4167:915 JLINK_ReadMemEx(0x40020C14, 0x0004 Bytes, ..., Flags = 0x02000004) -- CPU_ReadMem(4 bytes @ 0x40020C14) - Data: FF 00 00 00  returns 0x04 (0000ms, 31586ms total)
T301C 4167:915 JLINK_ReadMemEx(0x40020C1C, 0x0008 Bytes, ..., Flags = 0x02000004) -- CPU_ReadMem(8 bytes @ 0x40020C1C) - Data: 00 00 00 00 00 00 00 00  returns 0x08 (0001ms, 31587ms total)
T301C 4167:916 JLINK_ReadMemEx(0x40020C24, 0x0004 Bytes, ..., Flags = 0x02000004) -- CPU_ReadMem(4 bytes @ 0x40020C24) - Data: 00 00 00 00  returns 0x04 (0000ms, 31587ms total)
T301C 4167:917 JLINK_ReadMemEx(0x40020000, 0x0014 Bytes, ..., Flags = 0x02000004) -- CPU_ReadMem(20 bytes @ 0x40020000) - Data: 54 00 00 A8 00 00 00 00 FC 00 00 0C 00 00 00 64 ...  returns 0x14 (0000ms, 31587ms total)
T301C 4167:917 JLINK_ReadMemEx(0x40020014, 0x0004 Bytes, ..., Flags = 0x02000004) -- CPU_ReadMem(4 bytes @ 0x40020014) - Data: 08 00 00 00  returns 0x04 (0001ms, 31588ms total)
T301C 4167:918 JLINK_ReadMemEx(0x4002001C, 0x0008 Bytes, ..., Flags = 0x02000004) -- CPU_ReadMem(8 bytes @ 0x4002001C) - Data: 00 00 00 00 00 00 00 00  returns 0x08 (0000ms, 31588ms total)
T301C 4167:918 JLINK_ReadMemEx(0x40020024, 0x0004 Bytes, ..., Flags = 0x02000004) -- CPU_ReadMem(4 bytes @ 0x40020024) - Data: 00 00 00 00  returns 0x04 (0001ms, 31589ms total)
T6478 4167:919 JLINK_IsHalted()  returns FALSE (0000ms, 31589ms total)
T6478 4168:020 JLINK_IsHalted()  returns FALSE (0000ms, 31589ms total)
T6478 4168:121 JLINK_IsHalted()  returns FALSE (0000ms, 31589ms total)
T6478 4168:223 JLINK_IsHalted()  returns FALSE (0000ms, 31589ms total)
T6478 4168:324 JLINK_IsHalted()  returns FALSE (0000ms, 31589ms total)
T6478 4168:425 JLINK_ReadMemU32(0xE0001004, 0x0001 Items, ...) - Data: 13 23 88 05  returns 0x01 (0000ms, 31589ms total)
T301C 4168:425 JLINK_ReadMemEx(0x00000000, 0x0001 Bytes, ..., Flags = 0x02000000) -- CPU_ReadMem(1 bytes @ 0x08000000) - Data: 60  returns 0x01 (0001ms, 31590ms total)
T301C 4168:427 JLINK_ReadMemEx(0x20000002, 0x0020 Bytes, ..., Flags = 0x02000000) -- CPU_ReadMem(32 bytes @ 0x20000002) - Data: 40 00 00 00 00 00 00 00 00 00 00 00 00 00 00 00 ...  returns 0x20 (0001ms, 31591ms total)
T301C 4168:428 JLINK_ReadMemEx(0x20004407, 0x0001 Bytes, ..., Flags = 0x02000000) -- CPU_ReadMem(1 bytes @ 0x20004407) - Data: 01  returns 0x01 (0001ms, 31592ms total)
T301C 4168:429 JLINK_ReadMemEx(0x20004408, 0x0001 Bytes, ..., Flags = 0x02000000) -- CPU_ReadMem(1 bytes @ 0x20004408) - Data: 00  returns 0x01 (0000ms, 31592ms total)
T301C 4168:429 JLINK_ReadMemEx(0x20004406, 0x0001 Bytes, ..., Flags = 0x02000000) -- CPU_ReadMem(1 bytes @ 0x20004406) - Data: 0F  returns 0x01 (0001ms, 31593ms total)
